;Version, 1, 0
;V2:p (VGS=1.00e+00|VSB=0.00e+00),;V2:p (VGS=7.00e-01|VSB=0.00e+00),;V2:p (VGS=5.00e-01|VSB=0.00e+00),;V2:p (VGS=4.00e-01|VSB=0.00e+00),;V2:p (VGS=1.00e+00|VSB=5.00e-01),;V2:p (VGS=7.00e-01|VSB=5.00e-01),;V2:p (VGS=4.00e-01|VSB=5.00e-01),;V2:p (VGS=5.00e-01|VSB=5.00e-01)
;X, Y,;X, Y,;X, Y,;X, Y,;X, Y,;X, Y,;X, Y,;X, Y
;Re, Re,;Re, Re,;Re, Re,;Re, Re,;Re, Re,;Re, Re,;Re, Re,;Re, Re
;VDS, I,;VDS, I,;VDS, I,;VDS, I,;VDS, I,;VDS, I,;VDS, I,;VDS, I
;xunit, A,;xunit, A,;xunit, A,;xunit, A,;xunit, A,;xunit, A,;xunit, A,;xunit, A
0,0,0,0,0,0,0,0,0,-1.213774360901373e-07,0,-1.213774360901373e-07,0,-1.213774360901373e-07,0,-1.213774360901373e-07
0.05,2.555096536199958e-05,0.05,1.662531929697238e-05,0.05,8.671761289289663e-06,0.05,4.308494150714856e-06,0.05,2.664117450456745e-05,0.05,1.79885007144891e-05,0.05,5.938694544735521e-06,0.05,1.031140183017314e-05
0.1,4.735771328685281e-05,0.1,2.998182866083658e-05,0.1,1.493720360872309e-05,0.1,6.924107431001132e-06,0.1,4.928355008828454e-05,0.1,3.237776295640057e-05,0.1,9.687432288701672e-06,0.1,1.778519873282492e-05
0.15,6.589210492783285e-05,0.15,4.054165023182168e-05,0.15,1.921291003439526e-05,0.15,8.414863994742532e-06,0.15,6.839100734046472e-05,0.15,4.364735527228593e-05,0.15,1.178040556027339e-05,0.15,2.285819566593106e-05
0.2,8.155157593939461e-05,0.2,4.870542211988619e-05,0.2,2.203463652572989e-05,0.2,9.501011645784889e-06,0.2,8.440381857601802e-05,0.2,5.225263273010805e-05,0.2,1.308206054071251e-05,0.2,2.610296043582915e-05
0.25,9.467420046306986e-05,0.25,5.485293259341207e-05,0.25,2.410252927595729e-05,0.25,1.050117732403207e-05,0.25,9.768912149041288e-05,0.25,5.861208768822786e-05,0.25,1.414777615866949e-05,0.25,2.829296916525707e-05
0.3,0.0001055519685780137,0.3,5.943871323425643e-05,0.3,2.587475732947827e-05,0.3,1.148853770190753e-05,0.3,0.0001085634724567025,0.3,6.321856010159285e-05,0.3,1.513499455384445e-05,0.3,3.003195501412191e-05
0.35,0.0001144466099204271,0.35,6.301006667589691e-05,0.35,2.751835941114401e-05,0.35,1.248438078992937e-05,0.35,0.0001173132020731826,0.35,6.667434708011867e-05,0.35,1.608914937582395e-05,0.35,3.156647534406924e-05
0.4,0.0001216217359969738,0.4,6.600180313381341e-05,0.4,2.909610232520437e-05,0.4,1.349748243032808e-05,0.4,0.0001242333988778271,0.4,6.94698465327655e-05,0.4,1.70291699469098e-05,0.4,3.29897903871905e-05
0.45,0.0001274012236939971,0.45,6.865599740759305e-05,0.45,3.063789564564685e-05,0.45,1.453211742366254e-05,0.45,0.000129689019339607,0.45,7.188004702302936e-05,0.45,1.796490201244642e-05,0.45,3.434592404250639e-05
0.4999999999999999,0.0001321667319756988,0.4999999999999999,7.110020384130036e-05,0.4999999999999999,3.216037572073456e-05,0.4999999999999999,1.559046714210222e-05,0.4999999999999999,0.0001340957541908652,0.4999999999999999,7.404924264737024e-05,0.4999999999999999,1.890207995354962e-05,0.4999999999999999,3.565932717489712e-05
0.5499999999999999,0.0001362496991491494,0.5499999999999999,7.340652802660426e-05,0.5499999999999999,3.367365130846704e-05,0.5499999999999999,1.667358712416946e-05,0.5499999999999999,0.000137801074752078,0.5499999999999999,7.60586411426845e-05,0.5499999999999999,1.984423665494341e-05,0.5499999999999999,3.694491194951685e-05
0.6,0.0001398772388108336,0.6,7.561876048320579e-05,0.6,3.518421468697736e-05,0.6,1.778187311747678e-05,0.6,0.0001410381730690335,0.6,7.795748101625727e-05,0.6,2.079368401810968e-05,0.6,3.821240290987118e-05
0.65,0.0001431933787869182,0.65,7.77650331861773e-05,0.65,3.669639514877208e-05,0.65,1.891531335870722e-05,0.65,0.0001439538440366424,0.65,7.977734671619916e-05,0.65,2.175192428405481e-05,0.65,3.946838335437033e-05
0.7000000000000001,0.0001462899321326374,0.7000000000000001,7.986423148984786e-05,0.7000000000000001,3.821315689555245e-05,0.7000000000000001,2.007363669740354e-05,0.7000000000000001,0.0001466415675132607,0.7000000000000001,8.153944161047333e-05,0.7000000000000001,2.271994982540156e-05,0.7000000000000001,4.071747196202352e-05
0.7500000000000001,0.0001492271855656787,0.7500000000000001,8.192948835936495e-05,0.7500000000000001,3.973656721759105e-05,0.7500000000000001,2.125640496917555e-05,0.7500000000000001,0.0001491628066867764,0.7500000000000001,8.325852500415274e-05,0.7500000000000001,2.369841119436373e-05,0.7500000000000001,4.196299567164165e-05
0.8000000000000002,0.0001520460562565046,0.8000000000000002,8.397020393517595e-05,0.8000000000000002,4.126808537443485e-05,0.8000000000000002,2.2463073335982e-05,0.8000000000000002,0.0001515593693585543,0.8000000000000002,8.494518144296222e-05,0.8000000000000002,2.468772395032219e-05,0.8000000000000002,4.320740283757016e-05
0.8500000000000002,0.0001547751811529813,0.8500000000000002,8.599327022722666e-05,0.8500000000000002,4.280874809729968e-05,0.8500000000000002,2.369303113783344e-05,0.8500000000000002,0.0001538605902384956,0.8500000000000002,8.660719397638844e-05,0.8500000000000002,2.5688139098696e-05,0.8500000000000002,4.445252755742485e-05
0.9000000000000002,0.0001574351538683997,0.9000000000000002,8.800384417814251e-05,0.9000000000000002,4.43592926481221e-05,0.9000000000000002,2.494563029912096e-05,0.9000000000000002,0.0001560876217411566,0.9000000000000002,8.825040949356496e-05,0.9000000000000002,2.66997909303212e-05,0.9000000000000002,4.569976456527473e-05
0.9500000000000003,0.0001600411390006206,0.9500000000000003,9.000585251509536e-05,0.9500000000000003,4.592024067568182e-05,0.9500000000000003,2.622020544661797e-05,0.9500000000000003,0.0001582560839721866,0.9500000000000003,8.987930296719285e-05,0.9500000000000003,2.772273030587352e-05,0.9500000000000003,4.695018823932973e-05
1,0.000162604537543679,1,9.200233115275527e-05,1,4.749195663703463e-05,1,2.751608830404856e-05,1,0.0001603777552075702,1,9.149735624771111e-05,1,2.875694827002709e-05,1,4.820463551025748e-05
